hour,t(sec),"P1 (kW)","Q1 (kvar)","P2 (kW)","Q2 (kvar)","P3 (kW)","Q3 (kvar)"
10, 0.00100, -205.33, -0.00580266, -205.13, 0.0112813, -204.662, 0.00331492
10, 0.00200, -205.333, 0.0143176, -205.161, -0.0367613, -204.655, -0.0233808
10, 0.00300, -205.386, -0.0320644, -205.21, -0.0254389, -204.689, -0.0263784
10, 0.00400, -205.457, -0.0229371, -205.274, -0.017974, -204.741, -0.0185267
10, 0.00500, -205.542, -0.0161601, -205.347, -0.0123613, -204.804, -0.012698
10, 0.00600, -205.635, -0.0112105, -205.425, -0.00826346, -204.874, -0.00844363
10, 0.00700, -205.733, -0.00761246, -205.506, -0.0052857, -204.947, -0.00535925
10, 0.00800, -205.832, -0.00500963, -205.588, -0.00313571, -205.022, -0.00313855
10, 0.00900, -205.93, -0.00313793, -205.669, -0.00159586, -205.097, -0.00155371
10, 0.01000, -206.027, -0.00180213, -205.748, -0.000504735, -205.171, -0.000435752
10, 0.01100, -206.121, -0.000858222, -205.824, 0.000257298, -205.242, 0.000340445
10, 0.01200, -206.212, -0.000200071, -205.898, 0.000778759, -205.312, 0.000867376
10, 0.01300, -206.299, 0.000250413, -205.969, 0.00112507, -205.378, 0.00121332
10, 0.01400, -206.382, 0.000550618, -206.036, 0.00134451, -205.442, 0.00142859
10, 0.01500, -206.462, 0.00074266, -206.1, 0.00147267, -205.502, 0.0015502
10, 0.01600, -206.537, 0.00085739, -206.161, 0.0015357, -205.56, 0.00160535
10, 0.01700, -206.609, 0.000917364, -206.219, 0.00155281, -205.615, 0.00161394
10, 0.01800, -206.676, 0.000939029, -206.274, 0.00153805, -205.667, 0.00159049
10, 0.01900, -206.741, 0.000934343, -206.326, 0.00150167, -205.716, 0.00154558
10, 0.02000, -206.801, 0.000911963, -206.375, 0.00145109, -205.762, 0.00148686
10, 0.02100, -206.859, 0.000878123, -206.421, 0.00139169, -205.806, 0.00141981
10, 0.02200, -206.913, 0.000837285, -206.464, 0.00132731, -205.847, 0.00134837
10, 0.02300, -206.964, 0.000792613, -206.506, 0.00126068, -205.886, 0.00127529
10, 0.02400, -207.012, 0.000746324, -206.544, 0.0011937, -205.923, 0.00120248
10, 0.02500, -207.058, 0.000714409, -206.581, 0.00112592, -205.958, 0.00111951
10, 0.02600, -207.1, 0.000687219, -206.616, 0.00105608, -205.991, 0.00103575
10, 0.02700, -207.141, 0.000642832, -206.648, 0.000994229, -206.022, 0.00097102
10, 0.02800, -207.178, 0.000600065, -206.679, 0.000935267, -206.051, 0.000909657
10, 0.02900, -207.214, 0.000559388, -206.708, 0.000879328, -206.078, 0.000851695
10, 0.03000, -207.248, 0.000520973, -206.735, 0.000826446, -206.104, 0.000797147
10, 0.03100, -207.28, 0.000484889, -206.761, 0.000776588, -206.129, 0.000745951
10, 0.03200, -207.31, 0.000451129, -206.786, 0.000729671, -206.152, 0.000697994
10, 0.03300, -207.338, 0.00041964, -206.808, 0.000685587, -206.174, 0.000653135
10, 0.03400, -207.365, 0.000390331, -206.83, 0.000644205, -206.194, 0.000611215
10, 0.03500, -207.27, -0.000376344, -206.852, 0.000506701, -206.213, 0.000879302
10, 0.03600, -206.677, 0.0000277621, -206.88, 0.0000287853, -206.226, 0.00094434
10, 0.03700, -206.129, 0.000344588, -206.85, -0.000601745, -206.239, 0.000840314
10, 0.03800, -205.618, 0.000484515, -206.293, -0.0000317513, -206.233, -0.000198493
10, 0.03900, -205.15, 0.000224464, -205.774, 0.000123705, -205.726, 0.0000870849
10, 0.04000, -204.71, 0.000182379, -205.293, 0.000155703, -205.255, 0.000128199
10, 0.04100, -204.298, 0.000159234, -204.846, 0.000179272, -204.815, 0.000137696
10, 0.04200, -203.912, 0.000139807, -204.43, 0.000192369, -204.404, 0.000143685
10, 0.04300, -203.551, 0.000124057, -204.042, 0.000198279, -204.019, 0.000145884
10, 0.04400, -203.213, 0.000111087, -203.679, 0.000199231, -203.659, 0.000145363
10, 0.04500, -202.896, 0.000100274, -203.341, 0.000196815, -203.322, 0.000142888
10, 0.04600, -202.599, 0.000091142, -203.023, 0.000192161, -203.006, 0.000139044
10, 0.04700, -202.321, 0.0000833302, -202.727, 0.00018607, -202.71, 0.000134276
10, 0.04800, -202.06, 0.0000765661, -202.448, 0.000179105, -202.433, 0.000128918
10, 0.04900, -201.816, 0.0000706424, -202.188, 0.000171662, -202.173, 0.000123219
10, 0.05000, -201.587, 0.0000654008, -201.943, 0.000164016, -201.929, 0.000117364
10, 0.05100, -201.373, 0.0000607199, -201.714, 0.000156353, -201.701, 0.000111485
10, 0.05200, -201.173, 0.000056506, -201.499, 0.000148801, -201.486, 0.000105678
10, 0.05300, -200.985, 0.0000526863, -201.298, 0.000141443, -201.285, 0.000100011
10, 0.05400, -200.809, 0.0000492035, -201.109, 0.000134332, -201.096, 0.0000945271
10, 0.05500, -200.644, 0.0000460121, -200.932, 0.000127499, -200.919, 0.0000892569
10, 0.05600, -200.49, 0.0000430757, -200.765, 0.00012096, -200.753, 0.0000842172
10, 0.05700, -200.345, 0.0000403647, -200.609, 0.000114722, -200.598, 0.0000794166
10, 0.05800, -200.21, 0.0000378547, -200.463, 0.000108782, -200.451, 0.0000748574
10, 0.05900, -200.083, 0.0000355252, -200.326, 0.000103136, -200.314, 0.0000705373
10, 0.06000, -199.965, 0.0000333591, -200.197, 0.0000977758, -200.186, 0.000066451
10, 0.06100, -199.854, 0.0000313417, -200.076, 0.0000926899, -200.065, 0.000062591
10, 0.06200, -199.75, 0.00002946, -199.963, 0.0000878671, -199.952, 0.0000589486
10, 0.06300, -199.653, 0.000027703, -199.857, 0.0000832956, -199.846, 0.0000555141
10, 0.06400, -199.562, 0.0000260608, -199.757, 0.0000789633, -199.747, 0.0000522775
10, 0.06500, -199.476, 0.0000245245, -199.663, 0.0000748581, -199.653, 0.0000492288
10, 0.06600, -199.397, 0.0000230862, -199.576, 0.0000709686, -199.566, 0.0000463578
10, 0.06700, -199.322, 0.0000217388, -199.493, 0.0000672833, -199.484, 0.0000436548
10, 0.06800, -199.252, 0.0000204758, -199.416, 0.0000637917, -199.407, 0.0000411102
10, 0.06900, -199.187, 0.0000192913, -199.344, 0.0000604833, -199.335, 0.0000387151
10, 0.07000, -199.126, 0.0000181798, -199.276, 0.0000573484, -199.267, 0.0000364606
10, 0.07100, -199.068, 0.0000171364, -199.212, 0.0000543777, -199.203, 0.0000343386
10, 0.07200, -199.015, 0.0000161565, -199.152, 0.0000515625, -199.144, 0.0000323412
10, 0.07300, -198.965, 0.0000152358, -199.096, 0.0000488944, -199.088, 0.000030461
10, 0.07400, -198.918, 0.0000143706, -199.044, 0.0000463656, -199.036, 0.0000286911
10, 0.07500, -198.874, 0.000013557, -198.995, 0.0000439685, -198.987, 0.0000270249
10, 0.07600, -198.833, 0.0000127919, -198.948, 0.0000416964, -198.941, 0.0000254562
10, 0.07700, -198.795, 0.0000120722, -198.905, 0.0000395423, -198.897, 0.0000239792
10, 0.07800, -198.759, 0.0000113948, -198.865, 0.0000375002, -198.857, 0.0000225885
10, 0.07900, -198.726, 0.0000107572, -198.826, 0.0000355641, -198.819, 0.0000212789
10, 0.08000, -198.695, 0.0000101568, -198.791, 0.0000337284, -198.784, 0.0000200457
10, 0.08100, -198.665, 9.59143E-6, -198.757, 0.0000319878, -198.75, 0.0000188842
10, 0.08200, -198.638, 9.05878E-6, -198.726, 0.0000303374, -198.719, 0.0000177904
10, 0.08300, -198.613, 8.55689E-6, -198.696, 0.0000287723, -198.69, 0.0000167601
10, 0.08400, -198.589, 8.08388E-6, -198.669, 0.0000272881, -198.662, 0.0000157896
10, 0.08500, -198.566, 7.63798E-6, -198.643, 0.0000258806, -198.637, 0.0000148754
10, 0.08600, -198.546, 7.21756E-6, -198.619, 0.0000245457, -198.613, 0.0000140142
10, 0.08700, -198.526, 6.82108E-6, -198.596, 0.0000232798, -198.59, 0.0000132029
10, 0.08800, -198.508, 6.44711E-6, -198.575, 0.0000220792, -198.569, 0.0000124386
10, 0.08900, -198.491, 6.0943E-6, -198.555, 0.0000209405, -198.549, 0.0000117185
10, 0.09000, -198.475, 5.76141E-6, -198.536, 0.0000198605, -198.531, 0.0000110401
10, 0.09100, -198.46, 5.44725E-6, -198.518, 0.0000188361, -198.513, 0.0000104008
10, 0.09200, -198.448, -0.0000541033, -198.502, 0.0000198966, -198.497, 0.0000289282
10, 0.09300, -198.44, -0.0000326456, -198.487, 0.000020461, -198.482, 0.0000201161
10, 0.09400, -198.433, -0.0000211719, -198.472, 0.0000206943, -198.467, 0.0000149711
10, 0.09500, -198.428, -0.0000102189, -198.459, 0.0000410611, -198.456, -0.0000490844
10, 0.09600, -198.424, 0.0000147563, -198.448, -0.0000249911, -198.448, -0.0000266631
10, 0.09700, -198.421, 0.0000113224, -198.441, -9.83509E-6, -198.442, -0.0000159961
10, 0.09800, -198.419, 9.86651E-6, -198.435, -2.83626E-6, -198.437, -8.26131E-6
10, 0.09900, -198.417, 8.72133E-6, -198.431, 1.92506E-6, -198.434, -2.99774E-6
10, 0.10000, -198.415, 7.83613E-6, -198.428, 4.95673E-6, -198.431, 5.77255E-7
10, 0.10100, -198.413, 7.13258E-6, -198.425, 6.82661E-6, -198.429, 2.95619E-6
10, 0.10200, -198.412, 6.55751E-6, -198.424, 7.91125E-6, -198.427, 4.49511E-6
10, 0.10300, -198.41, 6.07435E-6, -198.422, 8.4693E-6, -198.426, 5.44635E-6
10, 0.10400, -198.409, 5.65795E-6, -198.421, 8.67758E-6, -198.425, 5.98884E-6
10, 0.10500, -198.408, 5.29103E-6, -198.42, 8.65667E-6, -198.424, 6.24921E-6
10, 0.10600, -198.407, 4.96175E-6, -198.419, 8.48857E-6, -198.423, 6.31693E-6
10, 0.10700, -198.406, 4.66195E-6, -198.418, 8.22884E-6, -198.422, 6.25505E-6
10, 0.10800, -198.405, 4.38596E-6, -198.417, 7.91493E-6, -198.421, 6.10785E-6
10, 0.10900, -198.405, 4.12986E-6, -198.416, 7.57192E-6, -198.42, 5.90635E-6
10, 0.11000, -198.404, 3.89084E-6, -198.416, 7.21645E-6, -198.42, 5.67215E-6
10, 0.11100, -198.403, 3.66687E-6, -198.415, 6.85945E-6, -198.419, 5.42019E-6
10, 0.11200, -198.403, 3.45645E-6, -198.415, 6.50794E-6, -198.419, 5.16071E-6
10, 0.11300, -198.402, 3.2584E-6, -198.414, 6.1663E-6, -198.418, 4.90068E-6
10, 0.11400, -198.401, 3.07181E-6, -198.414, 5.83716E-6, -198.418, 4.64471E-6
10, 0.11500, -198.401, 2.89588E-6, -198.413, 5.52198E-6, -198.417, 4.39581E-6
10, 0.11600, -198.4, 2.72997E-6, -198.413, 5.22142E-6, -198.417, 4.15585E-6
10, 0.11700, -198.4, 2.57346E-6, -198.412, 4.93563E-6, -198.417, 3.92593E-6
10, 0.11800, -198.399, 2.42583E-6, -198.412, 4.66444E-6, -198.416, 3.70659E-6
10, 0.11900, -198.399, 2.28658E-6, -198.412, 4.40746E-6, -198.416, 3.49801E-6
10, 0.12000, -198.399, 2.15524E-6, -198.411, 4.1642E-6, -198.416, 3.30013E-6
10, 0.12100, -198.398, 2.03138E-6, -198.411, 3.93408E-6, -198.415, 3.11272E-6
10, 0.12200, -198.398, 1.91458E-6, -198.411, 3.71649E-6, -198.415, 2.93544E-6
10, 0.12300, -198.397, 1.80445E-6, -198.411, 3.51082E-6, -198.415, 2.76792E-6
10, 0.12400, -198.397, 0.0000428441, -198.41, 0.0000382452, -198.415, 0.0000377523
10, 0.12500, -198.397, 0.0000277044, -198.41, 0.0000248747, -198.414, 0.0000246973
10, 0.12600, -198.397, 0.0000194206, -198.41, 0.0000174825, -198.414, 0.0000174093
10, 0.12700, -198.396, 0.0000135164, -198.41, 0.0000122062, -198.414, 0.000012197
10, 0.12800, -198.396, 9.4133E-6, -198.41, 8.52564E-6, -198.414, 8.54951E-6
10, 0.12900, -198.396, 6.55561E-6, -198.41, 5.95389E-6, -198.414, 5.9926E-6
10, 0.13000, -198.396, 4.56563E-6, -198.41, 4.15739E-6, -198.414, 4.20041E-6
10, 0.13100, -198.396, 3.17983E-6, -198.409, 2.9026E-6, -198.414, 2.94421E-6
10, 0.13200, -198.396, 2.21473E-6, -198.409, 2.02628E-6, -198.414, 2.06369E-6
10, 0.13300, -198.396, 1.54261E-6, -198.409, 1.41435E-6, -198.414, 1.4465E-6
10, 0.13400, -198.396, 1.0745E-6, -198.409, 9.87094E-7, -198.414, 1.01389E-6
10, 0.13500, -198.396, 7.48469E-7, -198.409, 6.88823E-7, -198.413, 7.10651E-7
10, 0.13600, -198.396, 5.21387E-7, -198.409, 4.80617E-7, -198.413, 4.98104E-7
10, 0.13700, -198.396, 3.63217E-7, -198.409, 3.353E-7, -198.413, 3.49125E-7
10, 0.13800, -198.396, 2.5304E-7, -198.409, 2.33891E-7, -198.413, 2.447E-7
10, 0.13900, -198.396, 1.76293E-7, -198.409, 1.63127E-7, -198.413, 1.71511E-7
10, 0.14000, -198.396, 1.22828E-7, -198.409, 1.13756E-7, -198.413, 1.20212E-7
10, 0.14100, -198.396, 8.55821E-8, -198.409, 7.93156E-8, -198.413, 8.42569E-8
10, 0.14200, -198.396, 5.96338E-8, -198.409, 5.52901E-8, -198.413, 5.90586E-8
10, 0.14300, -198.396, 4.15543E-8, -198.409, 3.85364E-8, -198.413, 4.13967E-8
10, 0.14400, -198.396, 2.89579E-8, -198.409, 2.68512E-8, -198.413, 2.90216E-8
10, 0.14500, -198.396, 2.01812E-8, -198.409, 1.87033E-8, -198.413, 2.0348E-8
10, 0.14600, -198.396, 1.40646E-8, -198.409, 1.30231E-8, -198.413, 1.42691E-8
10, 0.14700, -198.396, 9.8029E-9, -198.409, 9.06271E-9, -198.413, 1.00093E-8
10, 0.14800, -198.396, 6.832E-9, -198.409, 6.30206E-9, -198.413, 7.02626E-9
10, 0.14900, -198.396, 4.76258E-9, -198.409, 4.37803E-9, -198.413, 4.93418E-9
10, 0.15000, -198.396, 3.32049E-9, -198.409, 3.03821E-9, -198.413, 3.46692E-9
10, 0.15100, -198.396, 2.31432E-9, -198.409, 2.10365E-9, -198.413, 2.44203E-9
10, 0.15200, -198.396, 1.61332E-9, -198.409, 1.45267E-9, -198.413, 1.72349E-9
10, 0.15300, -198.396, 1.12499E-9, -198.409, 9.99018E-10, -198.413, 1.21909E-9
10, 0.15400, -198.396, 7.84326E-10, -198.409, 6.83969E-10, -198.413, 8.66057E-10
10, 0.15500, -198.396, 5.47296E-10, -198.409, 4.62664E-10, -198.413, 6.19431E-10
10, 0.15600, -198.396, 3.81227E-10, -198.409, 3.09868E-10, -198.413, 4.45943E-10
10, 0.15700, -198.396, 2.66325E-10, -198.409, 2.03509E-10, -198.413, 3.23416E-10
10, 0.15800, -198.396, 1.85523E-10, -198.409, 1.29978E-10, -198.413, 2.39175E-10
10, 0.15900, -198.396, 1.28938E-10, -198.409, 7.81147E-11, -198.413, 1.79149E-10
10, 0.16000, -198.396, 8.99799E-11, -198.409, 4.13711E-11, -198.413, 1.37938E-10
10, 0.16100, -198.396, 6.2988E-11, -198.409, 1.59635E-11, -198.413, 1.09547E-10
10, 0.16200, -198.396, 4.44707E-11, -198.409, -2.16824E-12, -198.413, 8.89268E-11
10, 0.16300, -198.396, 3.00965E-11, -198.409, -1.29658E-11, -198.413, 7.53498E-11
10, 0.16400, -198.396, 2.09293E-11, -198.409, -2.1173E-11, -198.413, 6.41739E-11
10, 0.16500, -198.396, 1.50853E-11, -198.409, -2.78233E-11, -198.413, 5.71454E-11
10, 0.16600, -198.396, 1.0396E-11, -198.409, -3.12284E-11, -198.413, 5.22996E-11
10, 0.16700, -198.396, 7.51879E-12, -198.409, -3.40224E-11, -198.413, 4.80941E-11
10, 0.16800, -198.396, 4.73801E-12, -198.409, -3.52884E-11, -198.413, 4.63915E-11
10, 0.16900, -198.396, 3.01861E-12, -198.409, -3.8388E-11, -198.413, 4.48199E-11
10, 0.17000, -198.396, 2.77441E-12, -198.409, -3.93047E-11, -198.413, 4.38158E-11
10, 0.17100, -198.396, 2.06273E-12, -198.409, -4.02069E-11, -198.413, 4.28845E-11
10, 0.17200, -198.396, 1.11368E-12, -198.409, -4.06872E-11, -198.413, 4.2317E-11
10, 0.17300, -198.396, 9.0813E-13, -198.409, -4.21569E-11, -198.413, 4.2608E-11
10, 0.17400, -198.396, 1.25056E-13, -198.409, -3.91592E-11, -198.413, 4.13565E-11
10, 0.17500, -198.396, 3.34239E-13, -198.409, -4.14584E-11, -198.413, 4.2317E-11
10, 0.17600, -198.396, 3.80624E-13, -198.409, -4.09491E-11, -198.413, 4.20114E-11
10, 0.17700, -198.396, -2.75122E-13, -198.409, -4.01051E-11, -198.413, 4.11092E-11
10, 0.17800, -198.396, 6.48924E-13, -198.409, -4.14584E-11, -198.413, 4.07017E-11
10, 0.17900, -198.396, -4.11546E-13, -198.409, -4.10073E-11, -198.413, 4.18804E-11
10, 0.18000, -198.396, -9.59517E-14, -198.409, -4.0498E-11, -198.413, 4.12547E-11
10, 0.18100, -198.396, -3.51974E-13, -198.409, -4.00323E-11, -198.413, 4.13856E-11
10, 0.18200, -198.396, 7.82165E-14, -198.409, -4.06289E-11, -198.413, 4.09054E-11
10, 0.18300, -198.396, 1.15961E-13, -198.409, -4.06726E-11, -198.413, 4.09491E-11
10, 0.18400, -198.396, -2.18279E-13, -198.409, -4.08909E-11, -198.413, 4.17494E-11
10, 0.18500, -198.396, -1.13232E-13, -198.409, -4.13711E-11, -198.413, 4.08327E-11
10, 0.18600, -198.396, 2.72848E-13, -198.409, -4.09491E-11, -198.413, 4.12547E-11
10, 0.18700, -198.396, -2.22826E-13, -198.409, -4.09927E-11, -198.413, 4.18077E-11
10, 0.18800, -198.396, -4.95675E-14, -198.409, -4.05853E-11, -198.413, 4.0367E-11
10, 0.18900, -198.396, -2.66937E-13, -198.409, -4.01051E-11, -198.413, 4.0658E-11
10, 0.19000, -198.396, -1.94632E-13, -198.409, -4.08472E-11, -198.413, 4.092E-11
10, 0.19100, -198.396, -9.09495E-16, -198.409, -4.09782E-11, -198.413, 4.10073E-11
10, 0.19200, -198.396, -4.54747E-16, -198.409, -4.09782E-11, -198.413, 4.10655E-11
10, 0.19300, -198.396, -4.54747E-16, -198.409, -4.09782E-11, -198.413, 4.10655E-11
10, 0.19400, -198.396, -4.54747E-16, -198.409, -4.09927E-11, -198.413, 4.1051E-11
10, 0.19500, -198.396, -4.54747E-16, -198.409, -4.10364E-11, -198.413, 4.10655E-11
10, 0.19600, -198.396, -4.54747E-16, -198.409, -4.10218E-11, -198.413, 4.1051E-11
10, 0.19700, -198.396, -4.54747E-16, -198.409, -4.10218E-11, -198.413, 4.1051E-11
10, 0.19800, -198.396, -4.54747E-16, -198.409, -4.10218E-11, -198.413, 4.10655E-11
10, 0.19900, -198.396, -4.54747E-16, -198.409, -4.10218E-11, -198.413, 4.10655E-11
10, 0.20000, -198.396, -4.54747E-16, -198.409, -4.10218E-11, -198.413, 4.10655E-11
10, 0.20100, -147.233, -0.674319, -150.662, -0.104416, -147.256, -0.457664
10, 0.20200, -147.18, 0.000445245, -150.67, 0.000362445, -147.236, -0.00180801
10, 0.20300, -147.18, 5.83068E-6, -150.671, -6.07974E-6, -147.236, -3.49747E-7
10, 0.20400, -147.18, -1.14198E-8, -150.671, -1.66721E-8, -147.236, 3.13375E-8
10, 0.20500, -147.18, -1.28087E-10, -150.671, 8.1287E-11, -147.236, 5.47007E-11
10, 0.20600, -147.18, 1.74623E-13, -150.671, -3.12793E-11, -147.236, 3.00861E-11
10, 0.20700, -147.18, 7.27596E-15, -150.671, -3.09446E-11, -147.236, 3.02825E-11
10, 0.20800, -147.18, -6.73026E-14, -150.671, -3.13739E-11, -147.236, 3.09228E-11
10, 0.20900, -147.18, 1.00954E-13, -150.671, -3.10902E-11, -147.236, 3.01588E-11
10, 0.21000, -147.18, -6.73026E-14, -150.671, -3.13739E-11, -147.236, 3.09228E-11
10, 0.21100, -147.18, 1.00954E-13, -150.671, -3.10902E-11, -147.236, 3.01588E-11
10, 0.21200, -147.18, -6.73026E-14, -150.671, -3.13739E-11, -147.236, 3.09228E-11
10, 0.21300, -147.18, 1.00954E-13, -150.671, -3.10902E-11, -147.236, 3.01588E-11
10, 0.21400, -147.18, -6.73026E-14, -150.671, -3.13739E-11, -147.236, 3.09228E-11
10, 0.21500, -147.18, 1.00954E-13, -150.671, -3.10902E-11, -147.236, 3.01588E-11
10, 0.21600, -147.18, -6.73026E-14, -150.671, -3.13739E-11, -147.236, 3.09228E-11
10, 0.21700, -147.18, 1.00954E-13, -150.671, -3.10902E-11, -147.236, 3.01588E-11
10, 0.21800, -147.18, -6.73026E-14, -150.671, -3.13739E-11, -147.236, 3.09228E-11
10, 0.21900, -147.18, 1.00954E-13, -150.671, -3.10902E-11, -147.236, 3.01588E-11
10, 0.22000, -147.18, -6.73026E-14, -150.671, -3.13739E-11, -147.236, 3.09228E-11
10, 0.22100, -147.18, 1.00954E-13, -150.671, -3.10902E-11, -147.236, 3.01588E-11
10, 0.22200, -147.18, -6.73026E-14, -150.671, -3.13739E-11, -147.236, 3.09228E-11
10, 0.22300, -147.18, 1.00954E-13, -150.671, -3.10902E-11, -147.236, 3.01588E-11
10, 0.22400, -147.18, -6.73026E-14, -150.671, -3.13739E-11, -147.236, 3.09228E-11
10, 0.22500, -147.18, 1.00954E-13, -150.671, -3.10902E-11, -147.236, 3.01588E-11
10, 0.22600, -147.18, -6.73026E-14, -150.671, -3.13739E-11, -147.236, 3.09228E-11
10, 0.22700, -147.18, 1.00954E-13, -150.671, -3.10902E-11, -147.236, 3.01588E-11
10, 0.22800, -147.18, -6.73026E-14, -150.671, -3.13739E-11, -147.236, 3.09228E-11
10, 0.22900, -147.18, 1.00954E-13, -150.671, -3.10902E-11, -147.236, 3.01588E-11
10, 0.23000, -147.18, -6.73026E-14, -150.671, -3.13739E-11, -147.236, 3.09228E-11
10, 0.23100, -147.18, 1.00954E-13, -150.671, -3.10902E-11, -147.236, 3.01588E-11
10, 0.23200, -147.18, -6.73026E-14, -150.671, -3.13739E-11, -147.236, 3.09228E-11
10, 0.23300, -147.18, 1.00954E-13, -150.671, -3.10902E-11, -147.236, 3.01588E-11
10, 0.23400, -147.18, -6.73026E-14, -150.671, -3.13739E-11, -147.236, 3.09228E-11
10, 0.23500, -147.18, 1.00954E-13, -150.671, -3.10902E-11, -147.236, 3.01588E-11
10, 0.23600, -147.18, -6.73026E-14, -150.671, -3.13739E-11, -147.236, 3.09228E-11
10, 0.23700, -147.18, 1.00954E-13, -150.671, -3.10902E-11, -147.236, 3.01588E-11
10, 0.23800, -147.18, -6.73026E-14, -150.671, -3.13739E-11, -147.236, 3.09228E-11
10, 0.23900, -147.18, 1.00954E-13, -150.671, -3.10902E-11, -147.236, 3.01588E-11
10, 0.24000, -147.18, -6.73026E-14, -150.671, -3.13739E-11, -147.236, 3.09228E-11
10, 0.24100, -147.18, 1.00954E-13, -150.671, -3.10902E-11, -147.236, 3.01588E-11
10, 0.24200, -147.18, -6.73026E-14, -150.671, -3.13739E-11, -147.236, 3.09228E-11
10, 0.24300, -147.18, 1.00954E-13, -150.671, -3.10902E-11, -147.236, 3.01588E-11
10, 0.24400, -147.18, -6.73026E-14, -150.671, -3.13739E-11, -147.236, 3.09228E-11
10, 0.24500, -147.18, 1.00954E-13, -150.671, -3.10902E-11, -147.236, 3.01588E-11
10, 0.24600, -147.18, -6.73026E-14, -150.671, -3.13739E-11, -147.236, 3.09228E-11
10, 0.24700, -147.18, 1.00954E-13, -150.671, -3.10902E-11, -147.236, 3.01588E-11
