hour,t(sec),kWh,State,kWOut,kWIn,kvarOut,DCkW,kWTotalLosses,kWInvLosses,kWIdlingLosses,kWChDchLosses,"kWh Chng",InvEff,InverterON,Vref,"Vavg (DRC)","VV Oper","VW Oper","DRC Oper","VV_DRC Oper","WP Oper","WV Oper",kWDesired,"kW VW Limit","Limit kWOut Function","kVA Exceeded","Grid voltage",di/dt,it,"it History","Rated VDC","Avg duty cycle","Target (Amps)","Series L","Max. Amps (phase)"
10, 0.00100, 6000, 1, 0, 0, 0, 0, 8.88889, 0, 8, 0.888889, 0, 1, 1, 9999, 9999, 9999, 9999, 9999, 9999, 9999, 9999, 800, 9999, 800, 1, 285.118, -3590.47, -1.79523, 0, 700, 0.406297, 935.284, 0.000381972, 962.25
10, 0.00200, 6000, 1, 3.04124, 0, 0.000502665, 3.04124, 9.2268, -2.12504E-17, 8, 1.2268, -2.46914E-6, 1, 1, 9999, 9999, 9999, 9999, 9999, 9999, 9999, 9999, 800, 9999, 800, 1, 285.14, 14552.3, 3.6857, -3.59047, 700, 0.415133, 935.213, 0.000381972, 962.25
10, 0.00300, 6000, 1, 19.2593, 0, 0.00305349, 19.2593, 11.0288, 1.14492E-16, 8, 3.02881, -3.40779E-6, 1, 1, 9999, 9999, 9999, 9999, 9999, 9999, 9999, 9999, 800, 9999, 800, 1, 285.174, 23477.9, 22.7008, 10.9619, 700, 0.424492, 935.101, 0.000381972, 962.25
10, 0.00400, 6000, 1, 41.7879, 0, 0.00463583, 41.7879, 13.532, -1.249E-15, 8, 5.53198, -8.41337E-6, 1, 1, 9999, 9999, 9999, 9999, 9999, 9999, 9999, 9999, 800, 9999, 800, 1, 285.28, 29342.6, 49.1111, 34.4398, 700, 0.433677, 934.753, 0.000381972, 962.25
10, 0.00500, 6000, 1, 68.4332, 0, 0.00513938, 68.4332, 16.4926, -2.22045E-16, 8, 8.49258, -0.0000153666, 1, 1, 9999, 9999, 9999, 9999, 9999, 9999, 9999, 9999, 800, 9999, 800, 1, 285.404, 33037.7, 80.3012, 63.7824, 700, 0.442588, 934.347, 0.000381972, 962.25
10, 0.00600, 6000, 1, 97.5988, 0, 0.00477702, 97.5988, 19.7332, 5.34989E-15, 8, 11.7332, -0.0000235905, 1, 1, 9999, 9999, 9999, 9999, 9999, 9999, 9999, 9999, 800, 9999, 800, 1, 285.538, 35158.1, 114.399, 96.82, 700, 0.451175, 933.908, 0.000381972, 962.25
10, 0.00700, 6000, 1, 128.128, 0, 0.00384742, 128.128, 23.1253, -1.4086E-14, 8, 15.1253, -0.0000325922, 1, 1, 9999, 9999, 9999, 9999, 9999, 9999, 9999, 9999, 800, 9999, 800, 1, 285.678, 36141.5, 150.049, 131.978, 700, 0.459413, 933.453, 0.000381972, 962.25
10, 0.00800, 6000, 1, 159.188, 0, 0.00262093, 159.188, 26.5764, 4.09395E-15, 8, 18.5764, -0.0000420149, 1, 1, 9999, 9999, 9999, 9999, 9999, 9999, 9999, 9999, 800, 9999, 800, 1, 285.819, 36311.6, 186.275, 168.12, 700, 0.467285, 932.993, 0.000381972, 962.25
10, 0.00900, 6000, 1, 190.182, 0, 0.001301, 190.182, 30.0203, -9.54792E-15, 8, 22.0203, -0.0000516011, 1, 1, 9999, 9999, 9999, 9999, 9999, 9999, 9999, 9999, 800, 9999, 800, 1, 285.958, 35907.6, 222.385, 204.431, 700, 0.474788, 932.537, 0.000381972, 962.25
10, 0.01000, 6000, 1, 220.694, 0, 0.0000232266, 220.694, 33.4104, -4.996E-15, 8, 25.4104, -0.0000611674, 1, 1, 9999, 9999, 9999, 9999, 9999, 9999, 9999, 9999, 800, 9999, 800, 1, 286.095, 35105.8, 257.892, 240.339, 700, 0.481923, 932.09, 0.000381972, 962.25
10, 0.01100, 6000, 1, 250.434, 0, -0.00113232, 250.434, 36.7149, 1.38778E-17, 8, 28.7149, -0.0000705845, 1, 1, 9999, 9999, 9999, 9999, 9999, 9999, 9999, 9999, 800, 9999, 800, 1, 286.228, 34036, 292.463, 275.445, 700, 0.488697, 931.657, 0.000381972, 962.25
10, 0.01200, 6000, 1, 279.209, 0, -0.00212614, 279.209, 39.9121, 0, 8, 31.9121, -0.0000797635, 1, 1, 9999, 9999, 9999, 9999, 9999, 9999, 9999, 9999, 800, 9999, 800, 1, 286.356, 32793.2, 325.877, 309.481, 700, 0.49512, 931.24, 0.000381972, 962.25
10, 0.01300, 6000, 1, 306.898, 0, -0.00294598, 306.898, 42.9887, 1.54876E-14, 8, 34.9887, -0.0000886448, 1, 1, 9999, 9999, 9999, 9999, 9999, 9999, 9999, 9999, 800, 9999, 800, 1, 286.479, 31446.7, 357.997, 342.274, 700, 0.501203, 930.841, 0.000381972, 962.25
10, 0.01400, 6000, 1, 333.43, 0, -0.00359653, 333.43, 45.9366, 2.54796E-14, 8, 37.9366, -0.0000971908, 1, 1, 9999, 9999, 9999, 9999, 9999, 9999, 9999, 9999, 800, 9999, 800, 1, 286.597, 30046.6, 388.744, 373.72, 700, 0.506961, 930.46, 0.000381972, 962.25
10, 0.01500, 6000, 1, 358.77, 0, -0.00409203, 358.77, 48.7522, 5.93969E-15, 8, 40.7522, -0.00010538, 1, 1, 9999, 9999, 9999, 9999, 9999, 9999, 9999, 9999, 800, 9999, 800, 1, 286.708, 28629.1, 418.082, 403.767, 700, 0.512407, 930.097, 0.000381972, 962.25
10, 0.01600, 6000, 1, 382.911, 0, -0.00445119, 382.911, 51.4345, 3.19189E-15, 8, 43.4345, -0.0001132, 1, 1, 9999, 9999, 9999, 9999, 9999, 9999, 9999, 9999, 800, 9999, 800, 1, 286.815, 27219.7, 446.006, 432.396, 700, 0.517556, 929.753, 0.000381972, 962.25
10, 0.01700, 6000, 1, 405.865, 0, -0.00469406, 405.865, 53.985, 1.38778E-15, 8, 45.985, -0.000120651, 1, 1, 9999, 9999, 9999, 9999, 9999, 9999, 9999, 9999, 800, 9999, 800, 1, 286.915, 25836.3, 472.534, 459.616, 700, 0.522421, 929.426, 0.000381972, 962.25
10, 0.01800, 6000, 1, 427.656, 0, -0.00484008, 427.656, 56.4063, -7.71605E-15, 8, 48.4063, -0.000127736, 1, 1, 9999, 9999, 9999, 9999, 9999, 9999, 9999, 9999, 800, 9999, 800, 1, 287.011, 24491.2, 497.698, 485.452, 700, 0.527018, 929.117, 0.000381972, 962.25
10, 0.01900, 6000, 1, 448.32, 0, -0.00490706, 448.32, 58.7022, -1.09079E-14, 8, 50.7022, -0.000134462, 1, 1, 9999, 9999, 9999, 9999, 9999, 9999, 9999, 9999, 800, 9999, 800, 1, 287.101, 23192.3, 521.539, 509.943, 700, 0.531359, 928.825, 0.000381972, 962.25
10, 0.02000, 6000, 1, 467.895, 0, -0.00491073, 467.895, 60.8773, -2.08999E-14, 8, 52.8773, -0.00014084, 1, 1, 9999, 9999, 9999, 9999, 9999, 9999, 9999, 9999, 800, 9999, 800, 1, 287.186, 21944.6, 544.108, 533.135, 700, 0.535459, 928.549, 0.000381972, 962.25
10, 0.02100, 6000, 1, 486.425, 0, -0.00486457, 486.425, 62.9362, 1.72917E-14, 8, 54.9362, -0.000146881, 1, 1, 9999, 9999, 9999, 9999, 9999, 9999, 9999, 9999, 800, 9999, 800, 1, 287.267, 20750.9, 565.456, 555.08, 700, 0.53933, 928.289, 0.000381972, 962.25
10, 0.02200, 6000, 1, 503.956, 0, -0.00477994, 503.956, 64.884, 3.19189E-15, 8, 56.884, -0.0001526, 1, 1, 9999, 9999, 9999, 9999, 9999, 9999, 9999, 9999, 800, 9999, 800, 1, 287.343, 19612.4, 585.637, 575.831, 700, 0.542984, 928.043, 0.000381972, 962.25
10, 0.02300, 6000, 1, 520.532, 0, -0.00466627, 520.532, 66.7258, 4.55191E-15, 8, 58.7258, -0.000158011, 1, 1, 9999, 9999, 9999, 9999, 9999, 9999, 9999, 9999, 800, 9999, 800, 1, 287.415, 18529, 604.708, 595.443, 700, 0.546434, 927.811, 0.000381972, 962.25
10, 0.02400, 6000, 1, 536.201, 0, -0.00453126, 536.201, 68.4668, 2.64233E-14, 8, 60.4668, -0.000163127, 1, 1, 9999, 9999, 9999, 9999, 9999, 9999, 9999, 9999, 800, 9999, 800, 1, 287.483, 17500.1, 622.722, 613.972, 700, 0.549691, 927.592, 0.000381972, 962.25
10, 0.02500, 6000, 1, 551.007, 0, -0.00438198, 551.007, 70.1119, -1.18239E-14, 8, 62.1119, -0.000167963, 1, 1, 9999, 9999, 9999, 9999, 9999, 9999, 9999, 9999, 800, 9999, 800, 1, 287.547, 16524.3, 639.735, 631.473, 700, 0.552764, 927.386, 0.000381972, 962.25
10, 0.02600, 6000, 1, 564.994, 0, -0.0042196, 564.994, 71.666, 4.45755E-14, 8, 63.666, -0.000172533, 1, 1, 9999, 9999, 9999, 9999, 9999, 9999, 9999, 9999, 800, 9999, 800, 1, 287.607, 15599.9, 655.797, 647.997, 700, 0.555665, 927.191, 0.000381972, 962.25
10, 0.02700, 6000, 1, 578.206, 0, -0.00405365, 578.206, 73.1339, 5.36793E-14, 8, 65.1339, -0.00017685, 1, 1, 9999, 9999, 9999, 9999, 9999, 9999, 9999, 9999, 800, 9999, 800, 1, 287.664, 14724.9, 670.959, 663.597, 700, 0.558403, 927.008, 0.000381972, 962.25
10, 0.02800, 6000, 1, 590.682, 0, -0.00388449, 590.682, 74.5202, -2.72005E-15, 8, 66.5202, -0.000180928, 1, 1, 9999, 9999, 9999, 9999, 9999, 9999, 9999, 9999, 800, 9999, 800, 1, 287.718, 13897.4, 685.27, 678.322, 700, 0.560986, 926.835, 0.000381972, 962.25
10, 0.02900, 6000, 1, 602.463, 0, -0.00371464, 602.463, 75.8292, -1.81521E-14, 8, 67.8292, -0.000184778, 1, 1, 9999, 9999, 9999, 9999, 9999, 9999, 9999, 9999, 800, 9999, 800, 1, 287.768, 13115, 698.776, 692.219, 700, 0.563425, 926.672, 0.000381972, 962.25
10, 0.03000, 6000, 1, 613.586, 0, -0.00354598, 613.586, 77.0651, -2.7256E-14, 8, 69.0651, -0.000188414, 1, 1, 9999, 9999, 9999, 9999, 9999, 9999, 9999, 9999, 800, 9999, 800, 1, 287.816, 12375.8, 711.522, 705.334, 700, 0.565726, 926.518, 0.000381972, 962.25
10, 0.03100, 6000, 1, 624.086, 0, -0.00337997, 624.086, 78.2318, 5.09592E-14, 8, 70.2318, -0.000191847, 1, 1, 9999, 9999, 9999, 9999, 9999, 9999, 9999, 9999, 800, 9999, 800, 1, 287.861, 11677.5, 723.549, 717.71, 700, 0.567897, 926.373, 0.000381972, 962.25
10, 0.03200, 6000, 1, 633.999, 0, -0.00321767, 633.999, 79.3332, 4.72955E-14, 8, 71.3332, -0.000195088, 1, 1, 9999, 9999, 9999, 9999, 9999, 9999, 9999, 9999, 800, 9999, 800, 1, 287.903, 11018.1, 734.896, 729.387, 700, 0.569947, 926.236, 0.000381972, 962.25
10, 0.03300, 6000, 1, 643.356, 0, -0.00305987, 643.356, 80.3728, 4.36873E-14, 8, 72.3728, -0.000198148, 1, 1, 9999, 9999, 9999, 9999, 9999, 9999, 9999, 9999, 800, 9999, 800, 1, 287.944, 10395.5, 745.603, 740.405, 700, 0.571881, 926.108, 0.000381972, 962.25
10, 0.03400, 6000, 1, 652.187, 0, -0.00290714, 652.187, 81.3541, -1.9984E-14, 8, 73.3541, -0.000201036, 1, 1, 9999, 9999, 9999, 9999, 9999, 9999, 9999, 9999, 800, 9999, 800, 1, 287.981, 9807.74, 755.705, 750.801, 700, 0.573706, 925.986, 0.000381972, 962.25
10, 0.03500, 6000, 1, 660.522, 0, -0.00233852, 660.522, 82.2803, 4.91274E-14, 8, 74.2803, -0.000203761, 1, 1, 9999, 9999, 9999, 9999, 9999, 9999, 9999, 9999, 800, 9999, 800, 1, 288.016, 9256.29, 765.237, 760.609, 700, 0.575428, 925.876, 0.000381972, 962.25
10, 0.03600, 6000, 1, 668.388, 0, -0.00227105, 668.388, 83.1543, -3.60822E-15, 8, 75.1543, -0.000206334, 1, 1, 9999, 9999, 9999, 9999, 9999, 9999, 9999, 9999, 800, 9999, 800, 1, 288.044, 8745.21, 774.237, 769.865, 700, 0.577053, 925.785, 0.000381972, 962.25
10, 0.03700, 6000, 1, 675.815, 0, -0.001878, 675.815, 83.9794, 5.18474E-14, 8, 75.9794, -0.000208762, 1, 1, 9999, 9999, 9999, 9999, 9999, 9999, 9999, 9999, 800, 9999, 800, 1, 288.071, 8254.16, 782.737, 778.61, 700, 0.578587, 925.697, 0.000381972, 962.25
10, 0.03800, 6000, 1, 682.824, 0, -0.00156611, 682.824, 84.7582, 3.09752E-14, 8, 76.7582, -0.000211054, 1, 1, 9999, 9999, 9999, 9999, 9999, 9999, 9999, 9999, 800, 9999, 800, 1, 288.105, 7769.07, 790.749, 786.864, 700, 0.580034, 925.587, 0.000381972, 962.25
10, 0.03900, 6000, 1, 689.441, 0, -0.00167707, 689.441, 85.4934, -2.72005E-15, 8, 77.4934, -0.000213217, 1, 1, 9999, 9999, 9999, 9999, 9999, 9999, 9999, 9999, 800, 9999, 800, 1, 288.128, 7346.44, 798.306, 794.633, 700, 0.5814, 925.515, 0.000381972, 962.25
10, 0.04000, 6000, 1, 695.69, 0, -0.00164882, 695.69, 86.1878, 3.09752E-14, 8, 78.1878, -0.000215259, 1, 1, 9999, 9999, 9999, 9999, 9999, 9999, 9999, 9999, 800, 9999, 800, 1, 288.151, 6933.73, 805.447, 801.98, 700, 0.582688, 925.442, 0.000381972, 962.25
10, 0.04100, 5999.99, 1, 701.591, 0, -0.00160212, 701.591, 86.8435, 5.4623E-14, 8, 78.8435, -0.000217188, 1, 1, 9999, 9999, 9999, 9999, 9999, 9999, 9999, 9999, 800, 9999, 800, 1, 288.172, 6543.8, 812.185, 808.913, 700, 0.583903, 925.373, 0.000381972, 962.25
10, 0.04200, 5999.99, 1, 707.161, 0, -0.00154759, 707.161, 87.4624, -5.45675E-14, 8, 79.4624, -0.00021901, 1, 1, 9999, 9999, 9999, 9999, 9999, 9999, 9999, 9999, 800, 9999, 800, 1, 288.192, 6174.99, 818.545, 815.457, 700, 0.58505, 925.309, 0.000381972, 962.25
10, 0.04300, 5999.99, 1, 712.419, 0, -0.00148794, 712.419, 88.0465, -8.88178E-16, 8, 80.0465, -0.000220729, 1, 1, 9999, 9999, 9999, 9999, 9999, 9999, 9999, 9999, 800, 9999, 800, 1, 288.211, 5826.35, 824.545, 821.632, 700, 0.586131, 925.248, 0.000381972, 962.25
10, 0.04400, 5999.99, 1, 717.38, 0, -0.00142545, 717.38, 88.5978, -1.63203E-14, 8, 80.5978, -0.000222351, 1, 1, 9999, 9999, 9999, 9999, 9999, 9999, 9999, 9999, 800, 9999, 800, 1, 288.229, 5496.93, 830.207, 827.459, 700, 0.587152, 925.19, 0.000381972, 962.25
10, 0.04500, 5999.99, 1, 722.062, 0, -0.00136176, 722.062, 89.118, -1.27121E-14, 8, 81.118, -0.000223883, 1, 1, 9999, 9999, 9999, 9999, 9999, 9999, 9999, 9999, 800, 9999, 800, 1, 288.246, 5185.77, 835.548, 832.956, 700, 0.588114, 925.136, 0.000381972, 962.25
10, 0.04600, 5999.99, 1, 726.48, 0, -0.00129806, 726.48, 89.6089, 5.55112E-17, 8, 81.6089, -0.000225328, 1, 1, 9999, 9999, 9999, 9999, 9999, 9999, 9999, 9999, 800, 9999, 800, 1, 288.262, 4891.94, 840.587, 838.141, 700, 0.589022, 925.085, 0.000381972, 962.25
10, 0.04700, 5999.99, 1, 730.648, 0, -0.00123518, 730.648, 90.072, -9.99201E-15, 8, 82.072, -0.000226691, 1, 1, 9999, 9999, 9999, 9999, 9999, 9999, 9999, 9999, 800, 9999, 800, 1, 288.277, 4614.55, 845.341, 843.033, 700, 0.589879, 925.037, 0.000381972, 962.25
10, 0.04800, 5999.99, 1, 734.581, 0, -0.00117374, 734.581, 90.5089, -4.4964E-15, 8, 82.5089, -0.000227978, 1, 1, 9999, 9999, 9999, 9999, 9999, 9999, 9999, 9999, 800, 9999, 800, 1, 288.291, 4352.72, 849.824, 847.648, 700, 0.590687, 924.991, 0.000381972, 962.25
10, 0.04900, 5999.99, 1, 738.29, 0, -0.00111412, 738.29, 90.9212, -5.4512E-14, 8, 82.9212, -0.000229192, 1, 1, 9999, 9999, 9999, 9999, 9999, 9999, 9999, 9999, 800, 9999, 800, 1, 288.304, 4105.62, 854.053, 852, 700, 0.591449, 924.948, 0.000381972, 962.25
10, 0.05000, 5999.99, 1, 741.79, 0, -0.0010566, 741.79, 91.31, 3.36953E-14, 8, 83.31, -0.000230337, 1, 1, 9999, 9999, 9999, 9999, 9999, 9999, 9999, 9999, 800, 9999, 800, 1, 288.317, 3872.45, 858.042, 856.106, 700, 0.592168, 924.908, 0.000381972, 962.25
10, 0.05100, 5999.99, 1, 745.092, 0, -0.00100134, 745.092, 91.6769, 3.09752E-14, 8, 83.6769, -0.000231417, 1, 1, 9999, 9999, 9999, 9999, 9999, 9999, 9999, 9999, 800, 9999, 800, 1, 288.329, 3652.46, 861.805, 859.979, 700, 0.592847, 924.869, 0.000381972, 962.25
10, 0.05200, 5999.99, 1, 748.207, 0, -0.000948421, 748.207, 92.0229, 1.73195E-14, 8, 84.0229, -0.000232436, 1, 1, 9999, 9999, 9999, 9999, 9999, 9999, 9999, 9999, 800, 9999, 800, 1, 288.34, 3444.91, 865.353, 863.631, 700, 0.593487, 924.833, 0.000381972, 962.25
10, 0.05300, 5999.99, 1, 751.145, 0, -0.000897878, 751.145, 92.3494, -5.44009E-15, 8, 84.3494, -0.000233397, 1, 1, 9999, 9999, 9999, 9999, 9999, 9999, 9999, 9999, 800, 9999, 800, 1, 288.351, 3249.11, 868.701, 867.076, 700, 0.594091, 924.799, 0.000381972, 962.25
10, 0.05400, 5999.99, 1, 753.916, 0, -0.000849703, 753.916, 92.6574, -5.27356E-14, 8, 84.6574, -0.000234304, 1, 1, 9999, 9999, 9999, 9999, 9999, 9999, 9999, 9999, 800, 9999, 800, 1, 288.361, 3064.41, 871.857, 870.325, 700, 0.59466, 924.767, 0.000381972, 962.25
10, 0.05500, 5999.99, 1, 756.531, 0, -0.000803857, 756.531, 92.9478, -1.45439E-14, 8, 84.9478, -0.000235159, 1, 1, 9999, 9999, 9999, 9999, 9999, 9999, 9999, 9999, 800, 9999, 800, 1, 288.37, 2890.19, 874.835, 873.389, 700, 0.595198, 924.736, 0.000381972, 962.25
10, 0.05600, 5999.99, 1, 758.997, 0, -0.000760285, 758.997, 93.2219, -1.7264E-14, 8, 85.2219, -0.000235966, 1, 1, 9999, 9999, 9999, 9999, 9999, 9999, 9999, 9999, 800, 9999, 800, 1, 288.379, 2725.86, 877.643, 876.28, 700, 0.595705, 924.708, 0.000381972, 962.25
10, 0.05700, 5999.99, 1, 761.323, 0, -0.000718918, 761.323, 93.4803, 1.09357E-14, 8, 85.4803, -0.000236727, 1, 1, 9999, 9999, 9999, 9999, 9999, 9999, 9999, 9999, 800, 9999, 800, 1, 288.388, 2570.85, 880.291, 879.005, 700, 0.596183, 924.681, 0.000381972, 962.25
10, 0.05800, 5999.99, 1, 763.518, 0, -0.000679675, 763.518, 93.7242, 3.82472E-14, 8, 85.7242, -0.000237445, 1, 1, 9999, 9999, 9999, 9999, 9999, 9999, 9999, 9999, 800, 9999, 800, 1, 288.396, 2424.66, 882.789, 881.576, 700, 0.596634, 924.655, 0.000381972, 962.25
10, 0.05900, 5999.99, 1, 765.587, 0, -0.000642474, 765.587, 93.9542, -2.18159E-14, 8, 85.9542, -0.000238123, 1, 1, 9999, 9999, 9999, 9999, 9999, 9999, 9999, 9999, 800, 9999, 800, 1, 288.403, 2286.77, 885.144, 884.001, 700, 0.59706, 924.631, 0.000381972, 962.25
10, 0.06000, 5999.99, 1, 767.54, 0, -0.000607228, 767.54, 94.1711, -5.54556E-14, 8, 86.1711, -0.000238762, 1, 1, 9999, 9999, 9999, 9999, 9999, 9999, 9999, 9999, 800, 9999, 800, 1, 288.411, 2156.72, 887.366, 886.288, 700, 0.597462, 924.608, 0.000381972, 962.25
10, 0.06100, 5999.99, 1, 769.382, 0, -0.000573851, 769.382, 94.3757, -1.77636E-15, 8, 86.3757, -0.000239364, 1, 1, 9999, 9999, 9999, 9999, 9999, 9999, 9999, 9999, 800, 9999, 800, 1, 288.417, 2034.06, 889.461, 888.444, 700, 0.59784, 924.586, 0.000381972, 962.25
10, 0.06200, 5999.99, 1, 771.119, 0, -0.000542254, 771.119, 94.5688, 1.54876E-14, 8, 86.5688, -0.000239933, 1, 1, 9999, 9999, 9999, 9999, 9999, 9999, 9999, 9999, 800, 9999, 800, 1, 288.424, 1918.38, 891.438, 890.479, 700, 0.598198, 924.566, 0.000381972, 962.25
10, 0.06300, 5999.99, 1, 772.758, 0, -0.000512352, 772.758, 94.7509, 2.00395E-14, 8, 86.7509, -0.000240469, 1, 1, 9999, 9999, 9999, 9999, 9999, 9999, 9999, 9999, 800, 9999, 800, 1, 288.43, 1809.28, 893.302, 892.397, 700, 0.598535, 924.547, 0.000381972, 962.25
10, 0.06400, 5999.99, 1, 774.303, 0, -0.000484063, 774.303, 94.9226, 5.00711E-14, 8, 86.9226, -0.000240975, 1, 1, 9999, 9999, 9999, 9999, 9999, 9999, 9999, 9999, 800, 9999, 800, 1, 288.435, 1706.38, 895.059, 894.206, 700, 0.598853, 924.529, 0.000381972, 962.25
10, 0.06500, 5999.99, 1, 775.761, 0, -0.000457305, 775.761, 95.0846, 1.82077E-14, 8, 87.0846, -0.000241452, 1, 1, 9999, 9999, 9999, 9999, 9999, 9999, 9999, 9999, 800, 9999, 800, 1, 288.441, 1609.33, 896.717, 895.913, 700, 0.599153, 924.511, 0.000381972, 962.25
10, 0.06600, 5999.99, 1, 777.137, 0, -0.000432, 777.137, 95.2374, 1.36557E-14, 8, 87.2374, -0.000241902, 1, 1, 9999, 9999, 9999, 9999, 9999, 9999, 9999, 9999, 800, 9999, 800, 1, 288.446, 1517.81, 898.281, 897.522, 700, 0.599436, 924.495, 0.000381972, 962.25
10, 0.06700, 5999.99, 1, 778.434, 0, -0.000408074, 778.434, 95.3816, 2.09277E-14, 8, 87.3816, -0.000242326, 1, 1, 9999, 9999, 9999, 9999, 9999, 9999, 9999, 9999, 800, 9999, 800, 1, 288.45, 1431.49, 899.755, 899.04, 700, 0.599703, 924.48, 0.000381972, 962.25
10, 0.06800, 5999.99, 1, 779.658, 0, -0.000385455, 779.658, 95.5175, 2.09277E-14, 8, 87.5175, -0.000242727, 1, 1, 9999, 9999, 9999, 9999, 9999, 9999, 9999, 9999, 800, 9999, 800, 1, 288.455, 1350.08, 901.146, 900.471, 700, 0.599955, 924.466, 0.000381972, 962.25
10, 0.06900, 5999.99, 1, 780.812, 0, -0.000364074, 780.812, 95.6458, 2.91434E-14, 8, 87.6458, -0.000243104, 1, 1, 9999, 9999, 9999, 9999, 9999, 9999, 9999, 9999, 800, 9999, 800, 1, 288.459, 1273.3, 902.458, 901.821, 700, 0.600193, 924.452, 0.000381972, 962.25
10, 0.07000, 5999.99, 1, 781.901, 0, -0.000343865, 781.901, 95.7667, 3.82472E-14, 8, 87.7667, -0.00024346, 1, 1, 9999, 9999, 9999, 9999, 9999, 9999, 9999, 9999, 800, 9999, 800, 1, 288.463, 1200.89, 903.695, 903.095, 700, 0.600417, 924.439, 0.000381972, 962.25
10, 0.07100, 5999.99, 1, 782.927, 0, -0.000324767, 782.927, 95.8808, -5.54556E-14, 8, 87.8808, -0.000243796, 1, 1, 9999, 9999, 9999, 9999, 9999, 9999, 9999, 9999, 800, 9999, 800, 1, 288.467, 1132.59, 904.862, 904.295, 700, 0.600629, 924.427, 0.000381972, 962.25
10, 0.07200, 5999.99, 1, 783.896, 0, -0.000306719, 783.896, 95.9885, 6.38378E-15, 8, 87.9885, -0.000244113, 1, 1, 9999, 9999, 9999, 9999, 9999, 9999, 9999, 9999, 800, 9999, 800, 1, 288.471, 1068.19, 905.962, 905.428, 700, 0.600828, 924.415, 0.000381972, 962.25
10, 0.07300, 5999.99, 1, 784.81, 0, -0.000289666, 784.81, 96.09, 2.64233E-14, 8, 88.09, -0.000244412, 1, 1, 9999, 9999, 9999, 9999, 9999, 9999, 9999, 9999, 800, 9999, 800, 1, 288.474, 1007.44, 907, 906.496, 700, 0.601017, 924.405, 0.000381972, 962.25
10, 0.07400, 5999.99, 1, 785.672, 0, -0.000273553, 785.672, 96.1857, 3.27516E-14, 8, 88.1857, -0.000244694, 1, 1, 9999, 9999, 9999, 9999, 9999, 9999, 9999, 9999, 800, 9999, 800, 1, 288.477, 950.153, 907.979, 907.504, 700, 0.601194, 924.394, 0.000381972, 962.25
10, 0.07500, 5999.99, 1, 786.485, 0, -0.00025833, 786.485, 96.2761, 8.21565E-15, 8, 88.2761, -0.00024496, 1, 1, 9999, 9999, 9999, 9999, 9999, 9999, 9999, 9999, 800, 9999, 800, 1, 288.48, 896.124, 908.902, 908.454, 700, 0.601362, 924.385, 0.000381972, 962.25
10, 0.07600, 5999.99, 1, 787.251, 0, -0.000243949, 787.251, 96.3613, 5.00711E-14, 8, 88.3613, -0.000245211, 1, 1, 9999, 9999, 9999, 9999, 9999, 9999, 9999, 9999, 800, 9999, 800, 1, 288.483, 845.168, 909.773, 909.35, 700, 0.60152, 924.375, 0.000381972, 962.25
